! NanoVNA-App
! Date: 2025-05-31 18:07:13
! Start: 1MHz Stop: 100MHz Points: 801
! S-Parameter data: F S11
# Hz S RI R 50
!     Frequency           S11_Real           S11_Imag
        1000000   -1.427930593e-01    9.858111143e-01
        1123750   -2.772258408e-02    9.958859086e-01
        1247500    7.624092698e-02    9.932523370e-01
        1371250    1.691139787e-01    9.820264578e-01
        1495000    2.512341142e-01    9.644535780e-01
        1618750    3.237184882e-01    9.426437020e-01
        1742500    3.878763020e-01    9.182995558e-01
        1866250    4.443759024e-01    8.923985958e-01
        1990000    4.942713082e-01    8.658804893e-01
        2113750    5.384640098e-01    8.393753767e-01
        2237500    5.775274634e-01    8.131448627e-01
        2361250    6.121939421e-01    7.873812318e-01
        2485000    6.430739164e-01    7.625257969e-01
        2608750    6.706416011e-01    7.385534048e-01
        2732500    6.952402592e-01    7.155328393e-01
        2856250    7.172650695e-01    6.934772134e-01
        2980000    7.373253703e-01    6.723262668e-01
        3103750    7.554994822e-01    6.521832347e-01
        3227500    7.717136145e-01    6.328074932e-01
        3351250    7.865060568e-01    6.145429015e-01
        3475000    7.999978065e-01    5.969676971e-01
        3598750    8.122146726e-01    5.804443955e-01
        3722500    8.234348297e-01    5.646502972e-01
        3846250    8.335631490e-01    5.493081808e-01
        3970000    8.429660797e-01    5.348559618e-01
        4093750    8.517337441e-01    5.209751725e-01
        4217500    8.598245978e-01    5.078256130e-01
        4341250    8.671835661e-01    4.952499866e-01
        4465000    8.740181327e-01    4.831465781e-01
        4588750    8.803046942e-01    4.716134071e-01
        4712500    8.861430287e-01    4.605343044e-01
        4836250    8.915538788e-01    4.499022961e-01
        4960000    8.965643644e-01    4.397614300e-01
        5083750    9.012548923e-01    4.299922585e-01
        5207500    9.058281779e-01    4.204668701e-01
        5331250    9.100496173e-01    4.116718471e-01
        5455000    9.138414264e-01    4.029900730e-01
        5578750    9.174593091e-01    3.947648108e-01
        5702500    9.207488298e-01    3.867523968e-01
        5826250    9.240693450e-01    3.789301813e-01
        5950000    9.270164371e-01    3.715580106e-01
        6073750    9.298908710e-01    3.643639088e-01
        6197500    9.326223135e-01    3.574136794e-01
        6321250    9.351859689e-01    3.507945836e-01
        6445000    9.376523495e-01    3.444580138e-01
        6568750    9.398436546e-01    3.381969035e-01
        6692500    9.420748353e-01    3.322865069e-01
        6816250    9.439930916e-01    3.263428807e-01
        6940000    9.460127950e-01    3.207038939e-01
        7063750    9.477446079e-01    3.152425587e-01
        7187500    9.495353699e-01    3.099009395e-01
        7311250    9.510744214e-01    3.048057854e-01
        7435000    9.528813362e-01    2.998057902e-01
        7558750    9.542444944e-01    2.951699495e-01
        7682500    9.556546211e-01    2.904615998e-01
        7806250    9.570946693e-01    2.859043181e-01
        7930000    9.582331181e-01    2.814550996e-01
        8053750    9.594192505e-01    2.771362066e-01
        8177500    9.606446028e-01    2.730411589e-01
        8301250    9.617613554e-01    2.688453794e-01
        8425000    9.629053473e-01    2.649813294e-01
        8548750    9.639581442e-01    2.612024844e-01
        8672500    9.649736285e-01    2.573938966e-01
        8796250    9.658700824e-01    2.538339198e-01
        8920000    9.667822123e-01    2.504164875e-01
        9043750    9.675832391e-01    2.468436658e-01
        9167500    9.684872031e-01    2.435373664e-01
        9291250    9.692009091e-01    2.402204275e-01
        9415000    9.701009393e-01    2.369589806e-01
        9538750    9.707981348e-01    2.338258177e-01
        9662500    9.714698792e-01    2.308587879e-01
        9786250    9.721940756e-01    2.278496921e-01
        9910000    9.728478789e-01    2.250262052e-01
       10033750    9.733070135e-01    2.222013175e-01
       10157500    9.739636183e-01    2.194138914e-01
       10281250    9.745244384e-01    2.166991830e-01
       10405000    9.751529098e-01    2.140740752e-01
       10528750    9.756152630e-01    2.115536630e-01
       10652500    9.762647152e-01    2.090067267e-01
       10776250    9.767487645e-01    2.065895349e-01
       10900000    9.771773815e-01    2.041260898e-01
       11023750    9.775961041e-01    2.017457932e-01
       11147500    9.779683352e-01    1.995030791e-01
       11271250    9.782603979e-01    1.972582042e-01
       11395000    9.787912369e-01    1.948390454e-01
       11518750    9.792351127e-01    1.927424073e-01
       11642500    9.796874523e-01    1.907481551e-01
       11766250    9.799618125e-01    1.885088980e-01
       11890000    9.804226756e-01    1.866388321e-01
       12013750    9.807053804e-01    1.847614497e-01
       12137500    9.810702801e-01    1.827540100e-01
       12261250    9.813808203e-01    1.808007956e-01
       12385000    9.815781116e-01    1.789955646e-01
       12508750    9.820390344e-01    1.769938320e-01
       12632500    9.822926521e-01    1.751254946e-01
       12756250    9.826020598e-01    1.733435690e-01
       12880000    9.829293489e-01    1.717379093e-01
       13003750    9.832729101e-01    1.700194180e-01
       13127500    9.834044576e-01    1.682296991e-01
       13251250    9.836826921e-01    1.667327881e-01
       13375000    9.839478135e-01    1.651781052e-01
       13498750    9.841461182e-01    1.635238379e-01
       13622500    9.842511415e-01    1.618417948e-01
       13746250    9.847043157e-01    1.604105830e-01
       13870000    9.847750664e-01    1.590140611e-01
       13993750    9.851686358e-01    1.573997438e-01
       14117500    9.853837490e-01    1.560239941e-01
       14241250    9.854652882e-01    1.546303928e-01
       14365000    9.856444001e-01    1.531711221e-01
       14488750    9.858666062e-01    1.516948342e-01
       14612500    9.860960841e-01    1.504497230e-01
       14736250    9.862977266e-01    1.490888894e-01
       14860000    9.864575267e-01    1.477853805e-01
       14983750    9.866203666e-01    1.464581639e-01
       15107500    9.867876768e-01    1.451586187e-01
       15231250    9.870058894e-01    1.440053433e-01
       15355000    9.871803522e-01    1.427167207e-01
       15478750    9.872699380e-01    1.415540427e-01
       15602500    9.874380231e-01    1.402931958e-01
       15726250    9.875223041e-01    1.390452236e-01
       15850000    9.878262281e-01    1.378702819e-01
       15973750    9.879841208e-01    1.367838979e-01
       16097500    9.882097244e-01    1.355158240e-01
       16221250    9.882808924e-01    1.345629841e-01
       16345000    9.883605838e-01    1.334868968e-01
       16468750    9.885090590e-01    1.323653311e-01
       16592500    9.885598421e-01    1.314355433e-01
       16716250    9.887148142e-01    1.303195208e-01
       16840000    9.889434576e-01    1.292149872e-01
       16963750    9.891867638e-01    1.282538027e-01
       17087500    9.891266227e-01    1.271676570e-01
       17211250    9.893870950e-01    1.261970848e-01
       17335000    9.893926382e-01    1.253336519e-01
       17458750    9.893931150e-01    1.242708415e-01
       17582500    9.896157980e-01    1.234105751e-01
       17706250    9.896768332e-01    1.223108992e-01
       17830000    9.898688197e-01    1.213618368e-01
       17953750    9.899885058e-01    1.205354929e-01
       18077500    9.900283813e-01    1.196745038e-01
       18201250    9.902758598e-01    1.187391207e-01
       18325000    9.903289676e-01    1.179549769e-01
       18448750    9.903112650e-01    1.169875339e-01
       18572500    9.905973077e-01    1.161950156e-01
       18696250    9.905842543e-01    1.152191609e-01
       18820000    9.906638861e-01    1.144112647e-01
       18943750    9.907406569e-01    1.135845408e-01
       19067500    9.909205437e-01    1.127707735e-01
       19191250    9.909929633e-01    1.118944362e-01
       19315000    9.910457730e-01    1.112775803e-01
       19438750    9.912365079e-01    1.105021685e-01
       19562500    9.911918640e-01    1.097420454e-01
       19686250    9.912575483e-01    1.088892072e-01
       19810000    9.912832975e-01    1.080475301e-01
       19933750    9.913975596e-01    1.072728783e-01
       20057500    9.915192127e-01    1.065217629e-01
       20181250    9.917485714e-01    1.059348211e-01
       20305000    9.918870926e-01    1.050139293e-01
       20428750    9.918028116e-01    1.043943092e-01
       20552500    9.918795824e-01    1.037319601e-01
       20676250    9.919645786e-01    1.030524299e-01
       20800000    9.921568632e-01    1.022638753e-01
       20923750    9.921404123e-01    1.017773524e-01
       21047500    9.921069145e-01    1.007563695e-01
       21171250    9.921773672e-01    1.001564860e-01
       21295000    9.924905896e-01    9.948425740e-02
       21418750    9.924501777e-01    9.893336892e-02
       21542500    9.923716187e-01    9.835015982e-02
       21666250    9.923626781e-01    9.764305502e-02
       21790000    9.924656153e-01    9.696752578e-02
       21913750    9.925338626e-01    9.638942033e-02
       22037500    9.926854968e-01    9.564903378e-02
       22161250    9.927502275e-01    9.508094937e-02
       22285000    9.928905964e-01    9.443183243e-02
       22408750    9.928790927e-01    9.389717877e-02
       22532500    9.929754138e-01    9.333969653e-02
       22656250    9.930174351e-01    9.274316579e-02
       22780000    9.929386973e-01    9.208254516e-02
       22903750    9.930703640e-01    9.155931324e-02
       23027500    9.931277037e-01    9.096787125e-02
       23151250    9.931369424e-01    9.029500186e-02
       23275000    9.931988716e-01    8.968210220e-02
       23398750    9.934257269e-01    8.917633444e-02
       23522500    9.933852553e-01    8.863192052e-02
       23646250    9.933372736e-01    8.807404339e-02
       23770000    9.934678674e-01    8.757185936e-02
       23893750    9.933789372e-01    8.697399497e-02
       24017500    9.934884906e-01    8.641914278e-02
       24141250    9.935108423e-01    8.599011600e-02
       24265000    9.937003851e-01    8.523341268e-02
       24388750    9.937180877e-01    8.491650224e-02
       24512500    9.937590361e-01    8.431358635e-02
       24636250    9.937914014e-01    8.377137780e-02
       24760000    9.936825037e-01    8.321036398e-02
       24883750    9.937020540e-01    8.277495205e-02
       25007500    9.937652946e-01    8.230844140e-02
       25131250    9.938544631e-01    8.174252510e-02
       25255000    9.938617349e-01    8.127354085e-02
       25378750    9.940108061e-01    8.088121563e-02
       25502500    9.940381646e-01    8.034655452e-02
       25626250    9.940480590e-01    7.998386770e-02
       25750000    9.940646291e-01    7.942417264e-02
       25873750    9.940248132e-01    7.893885672e-02
       25997500    9.939549565e-01    7.845608890e-02
       26121250    9.939441085e-01    7.793936878e-02
       26245000    9.941582680e-01    7.758409530e-02
       26368750    9.941537976e-01    7.710272819e-02
       26492500    9.943047166e-01    7.651079446e-02
       26616250    9.941816926e-01    7.631137222e-02
       26740000    9.942357540e-01    7.585205138e-02
       26863750    9.941688180e-01    7.538209110e-02
       26987500    9.943172932e-01    7.501345873e-02
       27111250    9.942652583e-01    7.460325211e-02
       27235000    9.943832755e-01    7.407910377e-02
       27358750    9.943495393e-01    7.374143600e-02
       27482500    9.943552613e-01    7.332953811e-02
       27606250    9.945030808e-01    7.286950946e-02
       27730000    9.944585562e-01    7.258183509e-02
       27853750    9.944401979e-01    7.206700742e-02
       27977500    9.945453405e-01    7.191546261e-02
       28101250    9.944955111e-01    7.148952782e-02
       28225000    9.945974350e-01    7.099550217e-02
       28348750    9.946654439e-01    7.056637853e-02
       28472500    9.947724938e-01    7.013931125e-02
       28596250    9.947881699e-01    6.993313134e-02
       28720000    9.949314594e-01    6.946268678e-02
       28843750    9.949101210e-01    6.920713186e-02
       28967500    9.948955178e-01    6.879489124e-02
       29091250    9.949945807e-01    6.840629876e-02
       29215000    9.950090051e-01    6.793630868e-02
       29338750    9.950531721e-01    6.755144149e-02
       29462500    9.951035380e-01    6.714464724e-02
       29586250    9.952650070e-01    6.684641540e-02
       29710000    9.951913357e-01    6.655472517e-02
       29833750    9.952964187e-01    6.619589776e-02
       29957500    9.953026772e-01    6.589771062e-02
       30081250    9.952538013e-01    6.548977643e-02
       30205000    9.953611493e-01    6.494030356e-02
       30328750    9.953953624e-01    6.467526406e-02
       30452500    9.953305721e-01    6.424389035e-02
       30576250    9.953498244e-01    6.394200027e-02
       30700000    9.955006242e-01    6.361891329e-02
       30823750    9.955285192e-01    6.336659938e-02
       30947500    9.955486655e-01    6.295460463e-02
       31071250    9.954513311e-01    6.259466708e-02
       31195000    9.955955148e-01    6.215172261e-02
       31318750    9.957002401e-01    6.203640252e-02
       31442500    9.955945015e-01    6.148196757e-02
       31566250    9.956957698e-01    6.108267233e-02
       31690000    9.957291484e-01    6.085272133e-02
       31813750    9.958244562e-01    6.060294062e-02
       31937500    9.957059026e-01    6.028291956e-02
       32061250    9.957937002e-01    6.005827338e-02
       32185000    9.956440330e-01    5.960501730e-02
       32308750    9.955597520e-01    5.920866504e-02
       32432500    9.958472252e-01    5.890664086e-02
       32556250    9.959058762e-01    5.862459913e-02
       32680000    9.959071875e-01    5.823662505e-02
       32803750    9.959451556e-01    5.801500753e-02
       32927500    9.959123731e-01    5.770919472e-02
       33051250    9.961166382e-01    5.742505938e-02
       33175000    9.960178137e-01    5.713508278e-02
       33298750    9.959637523e-01    5.670428276e-02
       33422500    9.960086346e-01    5.649552122e-02
       33546250    9.961017370e-01    5.614091456e-02
       33670000    9.961354136e-01    5.581564084e-02
       33793750    9.961327910e-01    5.564962327e-02
       33917500    9.962962866e-01    5.532145500e-02
       34041250    9.962338209e-01    5.507092550e-02
       34165000    9.961643219e-01    5.484290794e-02
       34288750    9.962527752e-01    5.443077534e-02
       34412500    9.962287545e-01    5.407001823e-02
       34536250    9.961470962e-01    5.379620194e-02
       34660000    9.962799549e-01    5.357074738e-02
       34783750    9.963580966e-01    5.332293734e-02
       34907500    9.963707328e-01    5.300436169e-02
       35031250    9.962548018e-01    5.269787833e-02
       35155000    9.963386655e-01    5.251690000e-02
       35278750    9.962953925e-01    5.216155201e-02
       35402500    9.963642359e-01    5.187740177e-02
       35526250    9.964312315e-01    5.157872662e-02
       35650000    9.964401126e-01    5.134489015e-02
       35773750    9.965540171e-01    5.101263151e-02
       35897500    9.964882731e-01    5.071284249e-02
       36021250    9.965297580e-01    5.051054806e-02
       36145000    9.965134263e-01    5.033014342e-02
       36268750    9.965950251e-01    5.006895214e-02
       36392500    9.964701533e-01    4.965767264e-02
       36516250    9.964880943e-01    4.943198338e-02
       36640000    9.964975119e-01    4.914462939e-02
       36763750    9.966646433e-01    4.889538512e-02
       36887500    9.967336655e-01    4.865458980e-02
       37011250    9.967467189e-01    4.848461226e-02
       37135000    9.967309833e-01    4.812516645e-02
       37258750    9.967293739e-01    4.790646210e-02
       37382500    9.966013432e-01    4.766700789e-02
       37506250    9.966605902e-01    4.731482267e-02
       37630000    9.966562390e-01    4.703243822e-02
       37753750    9.967423677e-01    4.682480544e-02
       37877500    9.968029857e-01    4.657218233e-02
       38001250    9.968314767e-01    4.627205059e-02
       38125000    9.967551827e-01    4.613567516e-02
       38248750    9.968982935e-01    4.593937472e-02
       38372500    9.966682792e-01    4.568638653e-02
       38496250    9.967255592e-01    4.538357258e-02
       38620000    9.968403578e-01    4.512407258e-02
       38743750    9.968605638e-01    4.482771829e-02
       38867500    9.968711734e-01    4.453118891e-02
       38991250    9.970292449e-01    4.437582567e-02
       39115000    9.969032407e-01    4.422492161e-02
       39238750    9.969802499e-01    4.394053668e-02
       39362500    9.968898892e-01    4.367153719e-02
       39486250    9.968831539e-01    4.346052185e-02
       39610000    9.969386458e-01    4.318509996e-02
       39733750    9.969221354e-01    4.292931780e-02
       39857500    9.969612956e-01    4.269403592e-02
       39981250    9.970747828e-01    4.249440506e-02
       40105000    9.969846010e-01    4.222310707e-02
       40228750    9.970511198e-01    4.209983349e-02
       40352500    9.970523715e-01    4.191505164e-02
       40476250    9.970913529e-01    4.166227207e-02
       40600000    9.969282746e-01    4.143188521e-02
       40723750    9.969881177e-01    4.123044387e-02
       40847500    9.971414804e-01    4.099323601e-02
       40971250    9.970658422e-01    4.059244320e-02
       41095000    9.972108603e-01    4.042294249e-02
       41218750    9.971927404e-01    4.025868699e-02
       41342500    9.972374439e-01    4.009745643e-02
       41466250    9.971191883e-01    3.990068287e-02
       41590000    9.970743656e-01    3.964367136e-02
       41713750    9.970920086e-01    3.927300870e-02
       41837500    9.972711205e-01    3.916843981e-02
       41961250    9.972292185e-01    3.885238990e-02
       42085000    9.971975088e-01    3.867851198e-02
       42208750    9.972224832e-01    3.851626441e-02
       42332500    9.973248243e-01    3.846734017e-02
       42456250    9.973090291e-01    3.812367842e-02
       42580000    9.972284436e-01    3.797448799e-02
       42703750    9.971966743e-01    3.776082397e-02
       42827500    9.972613454e-01    3.748418018e-02
       42951250    9.972240329e-01    3.724001721e-02
       43075000    9.972740412e-01    3.701752424e-02
       43198750    9.973661304e-01    3.676852956e-02
       43322500    9.973029494e-01    3.658594936e-02
       43446250    9.973077178e-01    3.659138083e-02
       43570000    9.973084331e-01    3.636066988e-02
       43693750    9.973675609e-01    3.611802310e-02
       43817500    9.972426891e-01    3.590169922e-02
       43941250    9.971696138e-01    3.565186635e-02
       44065000    9.974214435e-01    3.543518484e-02
       44188750    9.973642230e-01    3.524508700e-02
       44312500    9.974308610e-01    3.515079618e-02
       44436250    9.974445701e-01    3.491204232e-02
       44560000    9.973599315e-01    3.469797969e-02
       44683750    9.973403215e-01    3.455040231e-02
       44807500    9.973785877e-01    3.430738673e-02
       44931250    9.973427057e-01    3.408037871e-02
       45055000    9.974349141e-01    3.379426152e-02
       45178750    9.973891973e-01    3.371606395e-02
       45302500    9.976141453e-01    3.336048126e-02
       45426250    9.974895716e-01    3.337839991e-02
