# HZ S RI R 50
50000000 0.9209184530231319 -0.3763828301988369 -0.0022356119273875064 -0.00599873864359619 0 0 0 0
50250000 0.9198980059674583 -0.37955704039843136 -0.0025718858366691705 -0.006259347108645176 0 0 0 0
50500000 0.9182585539728723 -0.3833659780690952 -0.0024725696538474857 -0.006231245218818583 0 0 0 0
50750000 0.9173234032133131 -0.3864723256654915 -0.0026918129166873016 -0.006380517118434216 0 0 0 0
51000000 0.9152942537292024 -0.3901897472979935 -0.002893652650262828 -0.006771443098475053 0 0 0 0
51250000 0.9136672963656803 -0.39376307392823756 -0.003075442572566248 -0.0068584404620706755 0 0 0 0
51500000 0.9118897568881422 -0.39730582798510383 -0.003071280085899961 -0.006970851463496795 0 0 0 0
51750000 0.9103115153784777 -0.40050350008165164 -0.003184362180673598 -0.007128990192450366 0 0 0 0
52000000 0.9081337026864734 -0.4045844634723404 -0.0032599566297897074 -0.007204926354879251 0 0 0 0
52250000 0.9065824456363293 -0.40827147326912083 -0.00349087547847342 -0.0076329079692635205 0 0 0 0
52500000 0.9050446233871083 -0.41168264389552767 -0.003675566950896361 -0.0078316406427341 0 0 0 0
52750000 0.9029800295632481 -0.415553112998229 -0.0038482389989322133 -0.007960021651051965 0 0 0 0
53000000 0.9011484791812363 -0.419438516331223 -0.003813785783858284 -0.008286488924310408 0 0 0 0
53250000 0.8992013633202308 -0.42276291904096047 -0.004253151203720578 -0.008296141260404628 0 0 0 0
53500000 0.8974468588492543 -0.4266800602192144 -0.004319772055492428 -0.008626835267768787 0 0 0 0
53750000 0.8950859772927033 -0.43079810998982937 -0.004438678051976634 -0.008915878513280686 0 0 0 0
54000000 0.8933129516044859 -0.43507915151051796 -0.004364008014423226 -0.009279937336995113 0 0 0 0
54250000 0.8912045627486659 -0.4386992924012893 -0.004656378993823437 -0.009324805878151557 0 0 0 0
54500000 0.8890942963560059 -0.44319104527692693 -0.004813255419191942 -0.009714798999761793 0 0 0 0
54750000 0.8866375911230429 -0.4465261854765078 -0.005222505286801694 -0.009886957999436433 0 0 0 0
55000000 0.8842259598927774 -0.45097183323391415 -0.005379385268968382 -0.010391240645862068 0 0 0 0
55250000 0.8820830126311219 -0.4549978076693952 -0.005623237916026497 -0.0106423159418031 0 0 0 0
55500000 0.8797516093632773 -0.4591525211351993 -0.005583547456721008 -0.01091033181160452 0 0 0 0
55750000 0.8770987389842662 -0.4632565745986707 -0.006254994745850022 -0.011106291521194458 0 0 0 0
56000000 0.8749635898306283 -0.4681138823951635 -0.00622410204935916 -0.011587038521610625 0 0 0 0
56250000 0.8720524484583391 -0.4720191018410102 -0.0065290501773536316 -0.012020848458809661 0 0 0 0
56500000 0.8697251375320314 -0.4764922357467021 -0.0070039022958954 -0.01222634243909044 0 0 0 0
56750000 0.8669033790216916 -0.4809003627077034 -0.007113530293599895 -0.012587158317334646 0 0 0 0
57000000 0.8641823983442986 -0.4852008992287119 -0.007149071461735477 -0.012941560514857562 0 0 0 0
57250000 0.8611935088816689 -0.4898945126062647 -0.007753461744176593 -0.013331647418810396 0 0 0 0
57500000 0.858545137933655 -0.4942718488089592 -0.008081149102137811 -0.013684663168337323 0 0 0 0
57750000 0.8554743583167103 -0.4987946681765124 -0.008463010901111238 -0.013946440659457666 0 0 0 0
58000000 0.8526413271922135 -0.503622865651767 -0.008800706346792826 -0.014277285365661455 0 0 0 0
58250000 0.8499678890366114 -0.5087414033823536 -0.009148172933337974 -0.01467267247671801 0 0 0 0
58500000 0.846134771879428 -0.5130428404170737 -0.009547741284598524 -0.01519834613348783 0 0 0 0
58750000 0.8431532605297507 -0.5181295890075804 -0.00992203670353962 -0.015676921703646835 0 0 0 0
59000000 0.839650994177623 -0.5225573803536645 -0.010374820532339813 -0.016169158226307382 0 0 0 0
59250000 0.8362244620364837 -0.5278391508582678 -0.010821608389508344 -0.01656177403252443 0 0 0 0
59500000 0.8328325458257031 -0.5325625674495991 -0.011268126551921385 -0.01708814195450244 0 0 0 0
59750000 0.8292288063141507 -0.5380388038544129 -0.011849142158965138 -0.017529855128654157 0 0 0 0
60000000 0.8253377303092577 -0.542373871534071 -0.012313612994254727 -0.018112193937312504 0 0 0 0
60250000 0.821710127661785 -0.5481593485448845 -0.012740130680027906 -0.01837003845783872 0 0 0 0
60500000 0.8174776968072246 -0.553398222534554 -0.013416994050514393 -0.01904587373759651 0 0 0 0
60750000 0.813336786359733 -0.5584205679128592 -0.01394983027466681 -0.01959869794818066 0 0 0 0
61000000 0.809691618071238 -0.5641580790105143 -0.014667559994248288 -0.020166938776665675 0 0 0 0
61250000 0.8052826321757169 -0.569357047793809 -0.015342583570625843 -0.020770916642539636 0 0 0 0
61500000 0.8008374043615847 -0.5746071036244511 -0.016078849689864033 -0.021218069322199985 0 0 0 0
61750000 0.7966466853413242 -0.5802921575981141 -0.016888707235448622 -0.022050437794727814 0 0 0 0
62000000 0.7919745537046754 -0.5856723200805559 -0.01752135526711618 -0.022577790716096464 0 0 0 0
62250000 0.7868485615875486 -0.5916182182607812 -0.018577585649060147 -0.02310803797056969 0 0 0 0
62500000 0.7824049323320522 -0.596973801919937 -0.019234098730690385 -0.023943492192790343 0 0 0 0
62750000 0.7770747372916015 -0.6030992516894672 -0.02021537440584865 -0.024521397379392844 0 0 0 0
63000000 0.7721933360624337 -0.6090547346566922 -0.021285435588687437 -0.02534848535154547 0 0 0 0
63250000 0.7668464560693157 -0.6146323891050364 -0.02226818956782436 -0.026106057142823633 0 0 0 0
63500000 0.7612284507789012 -0.6208899454980821 -0.023062326369547945 -0.026587357582830328 0 0 0 0
63750000 0.7557457319077587 -0.6264941761471648 -0.024347300601678484 -0.027464402038046516 0 0 0 0
64000000 0.7500524790580324 -0.6307856643274918 -0.025334016536220076 -0.02804302889971793 0 0 0 0
64250000 0.7442622959945072 -0.6388286567099006 -0.026789391269397857 -0.028956925330091983 0 0 0 0
64500000 0.7375857956914007 -0.6451278429273785 -0.02809003846175608 -0.029644834260266158 0 0 0 0
64750000 0.7312663487673616 -0.6513819818835463 -0.029501646799553805 -0.030627687756739755 0 0 0 0
65000000 0.7247845387075904 -0.6578229742216468 -0.031048064713854108 -0.03136849645575645 0 0 0 0
65250000 0.7176592269072135 -0.6642656606884776 -0.03253390407544456 -0.03206534712319708 0 0 0 0
65500000 0.7106768132840532 -0.6702516378988977 -0.033849220997728524 -0.03292802747567126 0 0 0 0
65750000 0.7031392606291952 -0.6770712006045326 -0.03591521951155679 -0.03385805565209675 0 0 0 0
66000000 0.6964911662645392 -0.6837996583579634 -0.03763168585655645 -0.034704777819890086 0 0 0 0
66250000 0.6881886415411385 -0.6902682950935844 -0.039356457754395044 -0.035755591778625466 0 0 0 0
66500000 0.6807638515604034 -0.6972271818043874 -0.04135508879524798 -0.03646639664344728 0 0 0 0
66750000 0.6724947128832169 -0.7033971997782295 -0.043484352614220775 -0.037429648463316895 0 0 0 0
67000000 0.6639032303191508 -0.7102680959481465 -0.045933428816158875 -0.03835270424496556 0 0 0 0
67250000 0.6549853238916375 -0.7169396850698994 -0.04819841280042411 -0.03917377212691398 0 0 0 0
67500000 0.6458457770473167 -0.7237150673122308 -0.050440740956918965 -0.0398900044480693 0 0 0 0
67750000 0.6366215710571185 -0.7302233369080863 -0.05322021998691961 -0.04095059349110913 0 0 0 0
68000000 0.627313627109848 -0.7373467544279386 -0.05605070059176651 -0.041850557859788994 0 0 0 0
68250000 0.6170349255186425 -0.7440473269619267 -0.05896740599136711 -0.042664991552399376 0 0 0 0
68500000 0.6065587157672426 -0.75129899761719 -0.06230105549754308 -0.043337781441419615 0 0 0 0
68750000 0.5958343238084257 -0.7578980242444981 -0.06559713630756912 -0.04401202026454633 0 0 0 0
69000000 0.5846904719460239 -0.764854165214157 -0.06909272416593913 -0.04483562901080689 0 0 0 0
69250000 0.573218477021052 -0.7716277746049257 -0.072603860260494 -0.045732180007406906 0 0 0 0
69500000 0.5612989533095349 -0.7782015867372426 -0.07691349126069967 -0.046257147662027535 0 0 0 0
69750000 0.5485857499102625 -0.7849471908086951 -0.08070936467281753 -0.04680058931525916 0 0 0 0
70000000 0.5358355919996302 -0.7916107270295996 -0.08508053066474167 -0.04730541039548859 0 0 0 0
70250000 0.5228438005687427 -0.7983060540690492 -0.08988812672389146 -0.04775539317824968 0 0 0 0
70500000 0.5089803831327826 -0.8046162608359213 -0.0948448715343658 -0.04789411210002533 0 0 0 0
70750000 0.4948724863409138 -0.8110620067261736 -0.09997975858361927 -0.0480170104946415 0 0 0 0
71000000 0.4801314868563606 -0.8176244887704781 -0.10558884185011891 -0.04820779161090837 0 0 0 0
71250000 0.4652534881485465 -0.8233772945137493 -0.11135587759324242 -0.04806144703846986 0 0 0 0
71500000 0.44918573637419484 -0.829093168888416 -0.1176859480367259 -0.04755536276368154 0 0 0 0
71750000 0.4328698725777204 -0.8355092511162221 -0.12399081320178681 -0.04692533023251721 0 0 0 0
72000000 0.4157230978418836 -0.8402372709292645 -0.1308914027737072 -0.04585658797651499 0 0 0 0
72250000 0.39817557731773273 -0.8457979248373864 -0.13821554932771268 -0.044762965713282976 0 0 0 0
72500000 0.37933458067974063 -0.85078848163884 -0.14561929046942718 -0.043253519743796154 0 0 0 0
72750000 0.3608745777129765 -0.8553319419662582 -0.1536614099456219 -0.0415092460938504 0 0 0 0
73000000 0.34087859485370675 -0.859182582988286 -0.16201129233568207 -0.03879090478780939 0 0 0 0
73250000 0.32132749550769973 -0.8627653829226318 -0.17082140945767396 -0.036080607867324886 0 0 0 0
73500000 0.3002548339415675 -0.8657342750434289 -0.1798877702656029 -0.03256339703699804 0 0 0 0
73750000 0.2781982234518321 -0.8682481669184524 -0.1895482497608358 -0.02841512347235653 0 0 0 0
74000000 0.25572176720347123 -0.870254181346444 -0.19900806538419746 -0.023819215778562143 0 0 0 0
74250000 0.23341947153974435 -0.8713574758170716 -0.20921718495213154 -0.018144010932652086 0 0 0 0
74500000 0.20950120831910968 -0.8718038047144148 -0.2199647710352367 -0.012054719995649688 0 0 0 0
74750000 0.1849642917349163 -0.8712931905725545 -0.23077028189621976 -0.0047027119028969135 0 0 0 0
75000000 0.16024021442910627 -0.870351269227931 -0.24178853828402638 0.003796014821116368 0 0 0 0
75250000 0.1346969169640939 -0.8674026613978294 -0.253468284084598 0.013285776711038286 0 0 0 0
75500000 0.10841487519409097 -0.8636056893853331 -0.26460114186510647 0.02368995260541711 0 0 0 0
75750000 0.08146621729596604 -0.8589796215039681 -0.276279133575982 0.035767714063184616 0 0 0 0
76000000 0.05390456804808316 -0.8525415487765207 -0.28736316314372534 0.049098782700017315 0 0 0 0
76250000 0.026454417837323878 -0.8451215633366971 -0.2985955457046911 0.06399414995047734 0 0 0 0
76500000 -0.0015906285660760172 -0.835897061467679 -0.3094433846428891 0.08038327536069335 0 0 0 0
76750000 -0.029442259062720987 -0.82529072718849 -0.3197007970603189 0.09835244792147385 0 0 0 0
77000000 -0.05792476326011737 -0.8125282862773964 -0.32890875253448776 0.1181845903632516 0 0 0 0
77250000 -0.08632249427590058 -0.7989000883567663 -0.3378148492718819 0.13951522989292878 0 0 0 0
77500000 -0.11396595748475585 -0.782174022135229 -0.34466686229840765 0.1622398441797162 0 0 0 0
77750000 -0.14174036236788431 -0.764482981663135 -0.35050979155035367 0.18745579680968533 0 0 0 0
78000000 -0.1687546097895251 -0.7444981217064964 -0.35501887927302794 0.2137820862947938 0 0 0 0
78250000 -0.19483269460879984 -0.7231308905392315 -0.3571237804251021 0.24172656962966785 0 0 0 0
78500000 -0.2198904812778547 -0.6994040624164571 -0.3573039982901791 0.2711143479632548 0 0 0 0
78750000 -0.24359834413956669 -0.67363297232686 -0.3549204368678947 0.3013243119874467 0 0 0 0
79000000 -0.26579071231007523 -0.6468009257618488 -0.34997667691712286 0.3328298735427427 0 0 0 0
79250000 -0.28654144258170966 -0.6177907746653141 -0.34192149662359117 0.3647785025175055 0 0 0 0
79500000 -0.30545846726676334 -0.5875432352467437 -0.33107561268262303 0.39703651845462623 0 0 0 0
79750000 -0.3218666448571149 -0.5562024489226436 -0.31676730665294933 0.4287337642410693 0 0 0 0
80000000 -0.33623853977830626 -0.5240430951131771 -0.29971809381741077 0.46096014062640267 0 0 0 0
80250000 -0.3485349004457612 -0.4904540484451254 -0.2791731143141381 0.4915476059216501 0 0 0 0
80500000 -0.3583827658286815 -0.45695790403532155 -0.2555532323271877 0.5213210065526386 0 0 0 0
80750000 -0.36562935359210436 -0.4231685566825538 -0.2289999133421711 0.5497961433764583 0 0 0 0
81000000 -0.3706734751013575 -0.3892131266146268 -0.19993101233576935 0.576042061100247 0 0 0 0
81250000 -0.3730228336861745 -0.35638085115268464 -0.16826092081980953 0.6001720526614444 0 0 0 0
81500000 -0.3732227578726583 -0.3235899929618379 -0.13363170750333975 0.621725068851271 0 0 0 0
81750000 -0.37129342243879165 -0.29179519166084206 -0.09773985823928699 0.6406681185229847 0 0 0 0
82000000 -0.3675646420042166 -0.2613932997767461 -0.05996419689619704 0.6567021115882238 0 0 0 0
82250000 -0.36201408390548034 -0.2320729133898665 -0.020930224087241205 0.6698093170928773 0 0 0 0
82500000 -0.35505584717407157 -0.20445616021825067 0.01978488197237481 0.6794581219865155 0 0 0 0
82750000 -0.34691715214931784 -0.17821350331229385 0.0607580250231385 0.6859929001233671 0 0 0 0
83000000 -0.33777610650944495 -0.15324945412848076 0.10179423891955176 0.689782658790749 0 0 0 0
83250000 -0.32762774064935685 -0.13020111552753907 0.1433432205409201 0.6905424081149432 0 0 0 0
83500000 -0.3169788189108169 -0.10856402218689641 0.18456446949195393 0.6879390734414054 0 0 0 0
83750000 -0.30621165401430306 -0.08855434958227111 0.2254732148901438 0.682268146718172 0 0 0 0
84000000 -0.29509785402200706 -0.06969346776853974 0.2659986964888649 0.6740658997008129 0 0 0 0
84250000 -0.28412156298694746 -0.05266955219061589 0.3053478735238215 0.6629697318029849 0 0 0 0
84500000 -0.27303903343659935 -0.03646570965450349 0.3433764142905785 0.6496497051645332 0 0 0 0
84750000 -0.2621363778062963 -0.021026785806644414 0.3804323108668525 0.6336598739044085 0 0 0 0
85000000 -0.2517154414897838 -0.007285553097849165 0.4164366066027227 0.6153331735098536 0 0 0 0
85250000 -0.24118593998229335 0.006354397910263849 0.4508825425491932 0.5949725226903968 0 0 0 0
85500000 -0.23153839668690293 0.018648338696988506 0.4833789580152447 0.572714323689701 0 0 0 0
85750000 -0.22141037279135067 0.030621858295261397 0.5150087622143686 0.5489142567168894 0 0 0 0
86000000 -0.2122899785219051 0.04202954311697056 0.5444429748231644 0.5230089715703125 0 0 0 0
86250000 -0.20352676689262095 0.05325459867171826 0.5717756922350767 0.49577483096163033 0 0 0 0
86500000 -0.19447993268260724 0.06361026167120594 0.5975478651665801 0.46702208321461586 0 0 0 0
86750000 -0.18614189607272458 0.07389133314406067 0.6217157122183706 0.4370511987397615 0 0 0 0
87000000 -0.17779607589010415 0.08386333857983233 0.6431097306879546 0.4062446308069069 0 0 0 0
87250000 -0.16963739274210618 0.09373305376216835 0.6630408060107836 0.3742378539357667 0 0 0 0
87500000 -0.16164423535268085 0.10324848739337494 0.6810671347422899 0.3416144632168366 0 0 0 0
87750000 -0.1533355972496469 0.11277631184865651 0.6973576722898346 0.308238202719823 0 0 0 0
88000000 -0.1452304209395264 0.12201332146158994 0.7112580962645287 0.27414786830790117 0 0 0 0
88250000 -0.13715820204205656 0.13087154370993956 0.7237191721859864 0.2399478049021068 0 0 0 0
88500000 -0.12897568069246182 0.13942659451210523 0.7342369878413112 0.20551011390525165 0 0 0 0
88750000 -0.12053531067658808 0.14815088512190902 0.742690760471123 0.17046362089659645 0 0 0 0
89000000 -0.11205371312167045 0.15627038282588696 0.7492537137079529 0.13555485466007733 0 0 0 0
89250000 -0.10339796906899912 0.1641859820128838 0.7539914390884936 0.10030527506651804 0 0 0 0
89500000 -0.09473954181432935 0.17172271265197112 0.7570605345112326 0.06570768362381935 0 0 0 0
89750000 -0.08571115580141822 0.17857212237660547 0.758821346444457 0.031437622770199666 0 0 0 0
90000000 -0.07664152029032277 0.18544534611772628 0.7586868403128371 -0.0032786162235349733 0 0 0 0
90250000 -0.06766518699143267 0.19144960854657753 0.7564677063139884 -0.03745972838124701 0 0 0 0
90500000 -0.05859162490370098 0.19720606439990992 0.7533053752529366 -0.07129462637938234 0 0 0 0
90750000 -0.049359878544143976 0.2022832329939023 0.7480683002851632 -0.10471271566813692 0 0 0 0
91000000 -0.04003266856858412 0.20684992381366862 0.7421201909233265 -0.1379188350997113 0 0 0 0
91250000 -0.031011826770891274 0.21052686986717048 0.7340369967229843 -0.17005957801813026 0 0 0 0
91500000 -0.02162106088070308 0.2135004265007944 0.7248880948113268 -0.20200923177098032 0 0 0 0
91750000 -0.012724275906521332 0.2157119525988456 0.7144045539451962 -0.23334103729678227 0 0 0 0
92000000 -0.00406506367217711 0.21787658189861964 0.702801734745134 -0.26421619813400077 0 0 0 0
92250000 0.004215388530308436 0.21877573905441164 0.6896649345667719 -0.2940748929922257 0 0 0 0
92500000 0.012165297892191698 0.2188944977694267 0.6754547319857909 -0.3239100295124634 0 0 0 0
92750000 0.019968668246294317 0.21878374795777975 0.6599980734517802 -0.3525969399795171 0 0 0 0
93000000 0.02712141275606954 0.21775231851341725 0.6433311997574763 -0.3810129036121763 0 0 0 0
93250000 0.03342777262419796 0.21584215083375963 0.6253023513586694 -0.4086050120314342 0 0 0 0
93500000 0.03912250716653308 0.21376977596484 0.6066678906379008 -0.4355680848634496 0 0 0 0
93750000 0.044209262880843044 0.21045119951945518 0.586590112191026 -0.4615876792741142 0 0 0 0
94000000 0.048579062800932174 0.20723000633827565 0.5649687063861647 -0.4867907213206405 0 0 0 0
94250000 0.0515732709377826 0.2033781385097748 0.5425563937988345 -0.5113983239894376 0 0 0 0
94500000 0.053530834892589266 0.19913228491536034 0.5186341450328206 -0.5349675562144796 0 0 0 0
94750000 0.054788559377200396 0.19460859934155353 0.49299319497626043 -0.5577615585276667 0 0 0 0
95000000 0.054599272351476 0.1895692267111062 0.4666711286922681 -0.5794806127596884 0 0 0 0
95250000 0.05351015496398172 0.1847739625170029 0.43891066976125603 -0.6000602485552489 0 0 0 0
95500000 0.05076165149799179 0.17983253322530127 0.4099691178783575 -0.6192100656873164 0 0 0 0
95750000 0.046921802177092804 0.1755294584333168 0.379463267040383 -0.6373673084215523 0 0 0 0
96000000 0.04177931257354091 0.17094060206732983 0.34792715829500626 -0.654265733418665 0 0 0 0
96250000 0.03503948912745395 0.16711024956694304 0.3152139823178898 -0.6696032864590943 0 0 0 0
96500000 0.027286108259199717 0.16431805238291322 0.2807717841069441 -0.6828374897412932 0 0 0 0
96750000 0.017854110715460628 0.16181347617926456 0.2455711765123048 -0.6946441496331036 0 0 0 0
97000000 0.007438738351438986 0.16048368237202587 0.20872842418115967 -0.703946199566018 0 0 0 0
97250000 -0.004531352459592204 0.16023587290702482 0.17145207541574758 -0.7108456553298809 0 0 0 0
97500000 -0.017402200076215117 0.1617232710646735 0.1333172056147111 -0.7156130617265763 0 0 0 0
97750000 -0.031123119495627082 0.16448070951815688 0.09432958177209275 -0.7175340565697161 0 0 0 0
98000000 -0.046064618463005545 0.1691367418484461 0.05543862462570879 -0.7169045696300781 0 0 0 0
98250000 -0.061249743614596425 0.17560025227048676 0.015736225371247956 -0.712770843917246 0 0 0 0
98500000 -0.07754851739229017 0.1843373785324322 -0.02339492390480233 -0.7067614980169101 0 0 0 0
98750000 -0.09336179583028432 0.19501791924710843 -0.06216138528620747 -0.6971020788943845 0 0 0 0
99000000 -0.10906986384464241 0.20823298271764412 -0.1001821834251556 -0.6839723282913601 0 0 0 0
99250000 -0.12434404335302181 0.22359131023866366 -0.13679140410716809 -0.6682842340996009 0 0 0 0
99500000 -0.13881230757628638 0.2414331243561209 -0.17208452853716544 -0.6495320630378092 0 0 0 0
99750000 -0.15232705701135357 0.2609563069695467 -0.20486887810710158 -0.6281040329551184 0 0 0 0
100000000 -0.16451408586429328 0.2828337675030445 -0.23585953758141023 -0.6044906911725052 0 0 0 0
